v2	I(I1)	I(I2)
Step Information: V3=2.5  (Run: 1/3)
-5.000000000000000e-001	2.271787e-009	5.313775e-006
-4.900000000000000e-001	3.043223e-009	5.313007e-006
-4.800000000000000e-001	4.072696e-009	5.311982e-006
-4.700000000000000e-001	5.442590e-009	5.310617e-006
-4.600000000000000e-001	7.258665e-009	5.308808e-006
-4.500000000000000e-001	9.654656e-009	5.306422e-006
-4.400000000000000e-001	1.279651e-008	5.303293e-006
-4.299999999999999e-001	1.688540e-008	5.299221e-006
-4.199999999999999e-001	2.215839e-008	5.293969e-006
-4.099999999999999e-001	2.888570e-008	5.287268e-006
-3.999999999999999e-001	3.736390e-008	5.278824e-006
-3.899999999999999e-001	4.790493e-008	5.268324e-006
-3.799999999999999e-001	6.082224e-008	5.255456e-006
-3.699999999999999e-001	7.641584e-008	5.239922e-006
-3.599999999999999e-001	9.495848e-008	5.221450e-006
-3.499999999999999e-001	1.166848e-007	5.199804e-006
-3.399999999999999e-001	1.417847e-007	5.174796e-006
-3.299999999999999e-001	1.704002e-007	5.146283e-006
-3.199999999999998e-001	2.026266e-007	5.114171e-006
-3.099999999999998e-001	2.385156e-007	5.078407e-006
-2.999999999999998e-001	2.780799e-007	5.038978e-006
-2.899999999999998e-001	3.212986e-007	4.995905e-006
-2.799999999999998e-001	3.681227e-007	4.949235e-006
-2.699999999999998e-001	4.184806e-007	4.899040e-006
-2.599999999999998e-001	4.722822e-007	4.845408e-006
-2.499999999999998e-001	5.294232e-007	4.788444e-006
-2.399999999999998e-001	5.897883e-007	4.728262e-006
-2.299999999999998e-001	6.532543e-007	4.664985e-006
-2.199999999999998e-001	7.196919e-007	4.598740e-006
-2.099999999999997e-001	7.889679e-007	4.529661e-006
-1.999999999999997e-001	8.609465e-007	4.457883e-006
-1.899999999999997e-001	9.354906e-007	4.383541e-006
-1.799999999999997e-001	1.012462e-006	4.306774e-006
-1.699999999999997e-001	1.091724e-006	4.227718e-006
-1.599999999999997e-001	1.173138e-006	4.146511e-006
-1.499999999999997e-001	1.256569e-006	4.063287e-006
-1.399999999999997e-001	1.341881e-006	3.978182e-006
-1.299999999999997e-001	1.428941e-006	3.891329e-006
-1.199999999999997e-001	1.517616e-006	3.802859e-006
-1.099999999999997e-001	1.607776e-006	3.712904e-006
-9.999999999999969e-002	1.699291e-006	3.621592e-006
-8.999999999999969e-002	1.792033e-006	3.529052e-006
-7.999999999999970e-002	1.885876e-006	3.435409e-006
-6.999999999999970e-002	1.980694e-006	3.340789e-006
-5.999999999999970e-002	2.076363e-006	3.245316e-006
-4.999999999999970e-002	2.172759e-006	3.149113e-006
-3.999999999999970e-002	2.269762e-006	3.052302e-006
-2.999999999999969e-002	2.367248e-006	2.955005e-006
-1.999999999999969e-002	2.465097e-006	2.857343e-006
-9.999999999999691e-003	2.563189e-006	2.759436e-006
3.087807787238717e-016	2.661404e-006	2.661404e-006
1.000000000000031e-002	2.759622e-006	2.563368e-006
2.000000000000031e-002	2.857723e-006	2.465446e-006
3.000000000000031e-002	2.955587e-006	2.367760e-006
4.000000000000031e-002	3.053093e-006	2.270430e-006
5.000000000000032e-002	3.150123e-006	2.173575e-006
6.000000000000032e-002	3.246553e-006	2.077319e-006
7.000000000000031e-002	3.342264e-006	1.981782e-006
8.000000000000031e-002	3.437131e-006	1.887087e-006
9.000000000000030e-002	3.531032e-006	1.793359e-006
1.000000000000003e-001	3.623842e-006	1.700722e-006
1.100000000000003e-001	3.715435e-006	1.609303e-006
1.200000000000003e-001	3.805685e-006	1.519228e-006
1.300000000000003e-001	3.894462e-006	1.430627e-006
1.400000000000003e-001	3.981637e-006	1.343630e-006
1.500000000000003e-001	4.067080e-006	1.258368e-006
1.600000000000003e-001	4.150657e-006	1.174974e-006
1.700000000000003e-001	4.232235e-006	1.093582e-006
1.800000000000003e-001	4.311678e-006	1.014329e-006
1.900000000000003e-001	4.388852e-006	9.373505e-007
2.000000000000003e-001	4.463619e-006	8.627833e-007
2.100000000000004e-001	4.535842e-006	7.907649e-007
2.200000000000004e-001	4.605386e-006	7.214319e-007
2.300000000000004e-001	4.672116e-006	6.549200e-007
2.400000000000004e-001	4.735899e-006	5.913622e-007
2.500000000000004e-001	4.796606e-006	5.308879e-007
2.600000000000004e-001	4.854114e-006	4.736211e-007
2.700000000000004e-001	4.908308e-006	4.196779e-007
2.800000000000004e-001	4.959081e-006	3.691642e-007
2.900000000000004e-001	5.006343e-006	3.221724e-007
3.000000000000004e-001	5.050018e-006	2.787770e-007
3.100000000000004e-001	5.090056e-006	2.390305e-007
3.200000000000005e-001	5.126430e-006	2.029581e-007
3.300000000000005e-001	5.159149e-006	1.705523e-007
3.400000000000005e-001	5.188259e-006	1.417668e-007
3.500000000000005e-001	5.213850e-006	1.165122e-007
3.600000000000005e-001	5.236057e-006	9.465158e-008
3.700000000000005e-001	5.255066e-006	7.599974e-008
3.800000000000005e-001	5.271108e-006	6.032509e-008
3.900000000000005e-001	5.284453e-006	4.735606e-008
4.000000000000005e-001	5.295402e-006	3.679164e-008
4.100000000000005e-001	5.304270e-006	2.831530e-008
4.200000000000005e-001	5.311373e-006	2.161051e-008
4.300000000000006e-001	5.317012e-006	1.637529e-008
4.400000000000006e-001	5.321461e-006	1.233392e-008
4.500000000000006e-001	5.324962e-006	9.244430e-009
4.600000000000006e-001	5.327719e-006	6.901702e-009
4.700000000000006e-001	5.329901e-006	5.136904e-009
4.800000000000006e-001	5.331643e-006	3.814431e-009
4.900000000000006e-001	5.333051e-006	2.827498e-009
5.000000000000000e-001	5.334208e-006	2.093329e-009
Step Information: V3=3.5  (Run: 2/3)
-5.000000000000000e-001	2.008756e-009	5.356184e-006
-4.900000000000000e-001	2.725676e-009	5.355469e-006
-4.800000000000000e-001	3.694525e-009	5.354502e-006
-4.700000000000000e-001	4.999730e-009	5.353200e-006
-4.600000000000000e-001	6.750819e-009	5.351453e-006
-4.500000000000000e-001	9.087580e-009	5.349121e-006
-4.400000000000000e-001	1.218478e-008	5.346031e-006
-4.299999999999999e-001	1.625533e-008	5.341969e-006
-4.199999999999999e-001	2.155073e-008	5.336685e-006
-4.099999999999999e-001	2.835729e-008	5.329894e-006
-3.999999999999999e-001	3.698766e-008	5.321282e-006
-3.899999999999999e-001	4.776782e-008	5.310525e-006
-3.799999999999999e-001	6.102116e-008	5.297300e-006
-3.699999999999999e-001	7.705216e-008	5.281303e-006
-3.599999999999999e-001	9.613206e-008	5.262264e-006
-3.499999999999999e-001	1.184886e-007	5.239955e-006
-3.399999999999999e-001	1.443004e-007	5.214197e-006
-3.299999999999999e-001	1.736957e-007	5.184864e-006
-3.199999999999998e-001	2.067545e-007	5.151874e-006
-3.099999999999998e-001	2.435131e-007	5.115191e-006
-2.999999999999998e-001	2.839696e-007	5.074818e-006
-2.899999999999998e-001	3.280901e-007	5.030788e-006
-2.799999999999998e-001	3.758141e-007	4.983161e-006
-2.699999999999998e-001	4.270603e-007	4.932019e-006
-2.599999999999998e-001	4.817305e-007	4.877459e-006
-2.499999999999998e-001	5.397139e-007	4.819592e-006
-2.399999999999998e-001	6.008904e-007	4.758538e-006
-2.299999999999998e-001	6.651329e-007	4.694423e-006
-2.199999999999998e-001	7.323094e-007	4.627380e-006
-2.099999999999997e-001	8.022850e-007	4.557543e-006
-1.999999999999997e-001	8.749230e-007	4.485049e-006
-1.899999999999997e-001	9.500858e-007	4.410035e-006
-1.799999999999997e-001	1.027636e-006	4.332638e-006
-1.699999999999997e-001	1.107436e-006	4.252995e-006
-1.599999999999997e-001	1.189349e-006	4.171243e-006
-1.499999999999997e-001	1.273242e-006	4.087517e-006
-1.399999999999997e-001	1.358980e-006	4.001948e-006
-1.299999999999997e-001	1.446432e-006	3.914670e-006
-1.199999999999997e-001	1.535466e-006	3.825813e-006
-1.099999999999997e-001	1.625955e-006	3.735505e-006
-9.999999999999969e-002	1.717770e-006	3.643874e-006
-8.999999999999969e-002	1.810786e-006	3.551045e-006
-7.999999999999970e-002	1.904879e-006	3.457143e-006
-6.999999999999970e-002	1.999926e-006	3.362291e-006
-5.999999999999970e-002	2.095804e-006	3.266610e-006
-4.999999999999970e-002	2.192393e-006	3.170222e-006
-3.999999999999970e-002	2.289574e-006	3.073245e-006
-2.999999999999969e-002	2.387226e-006	2.975800e-006
-1.999999999999969e-002	2.485232e-006	2.878005e-006
-9.999999999999691e-003	2.583474e-006	2.779977e-006
3.087807787238717e-016	2.681834e-006	2.681834e-006
1.000000000000031e-002	2.780195e-006	2.583693e-006
2.000000000000031e-002	2.878440e-006	2.485672e-006
3.000000000000031e-002	2.976451e-006	2.387888e-006
4.000000000000031e-002	3.074111e-006	2.290459e-006
5.000000000000032e-002	3.171302e-006	2.193502e-006
6.000000000000032e-002	3.267905e-006	2.097136e-006
7.000000000000031e-002	3.363802e-006	2.001481e-006
8.000000000000031e-002	3.458872e-006	1.906655e-006
9.000000000000030e-002	3.552996e-006	1.812781e-006
1.000000000000003e-001	3.646050e-006	1.719980e-006
1.100000000000003e-001	3.737911e-006	1.628376e-006
1.200000000000003e-001	3.828457e-006	1.538092e-006
1.300000000000003e-001	3.917559e-006	1.449255e-006
1.400000000000003e-001	4.005092e-006	1.361992e-006
1.500000000000003e-001	4.090928e-006	1.276432e-006
1.600000000000003e-001	4.174934e-006	1.192704e-006
1.700000000000003e-001	4.256982e-006	1.110941e-006
1.800000000000003e-001	4.336937e-006	1.031276e-006
1.900000000000003e-001	4.414666e-006	9.538421e-007
2.000000000000003e-001	4.490033e-006	8.787749e-007
2.100000000000004e-001	4.562904e-006	8.062099e-007
2.200000000000004e-001	4.633143e-006	7.362823e-007
2.300000000000004e-001	4.700616e-006	6.691272e-007
2.400000000000004e-001	4.765189e-006	6.048773e-007
2.500000000000004e-001	4.826733e-006	5.436630e-007
2.600000000000004e-001	4.885123e-006	4.856099e-007
2.700000000000004e-001	4.940238e-006	4.308371e-007
2.800000000000004e-001	4.991969e-006	3.794552e-007
2.900000000000004e-001	5.040219e-006	3.315624e-007
3.000000000000004e-001	5.084903e-006	2.872414e-007
3.100000000000004e-001	5.125960e-006	2.465549e-007
3.200000000000005e-001	5.163352e-006	2.095403e-007
3.300000000000005e-001	5.197072e-006	1.762043e-007
3.400000000000005e-001	5.227151e-006	1.465170e-007
3.500000000000005e-001	5.253660e-006	1.204058e-007
3.600000000000005e-001	5.276720e-006	9.775118e-008
3.700000000000005e-001	5.296497e-006	7.838360e-008
3.800000000000005e-001	5.313213e-006	6.208406e-008
3.900000000000005e-001	5.327130e-006	4.858883e-008
4.000000000000005e-001	5.338546e-006	3.759894e-008
4.100000000000005e-001	5.347780e-006	2.879383e-008
4.200000000000005e-001	5.355160e-006	2.184752e-008
4.300000000000006e-001	5.360998e-006	1.644496e-008
4.400000000000006e-001	5.365585e-006	1.229567e-008
4.500000000000006e-001	5.369178e-006	9.143186e-009
4.600000000000006e-001	5.371992e-006	6.769473e-009
4.700000000000006e-001	5.374209e-006	4.995132e-009
4.800000000000006e-001	5.375970e-006	3.676465e-009
4.900000000000006e-001	5.377389e-006	2.700858e-009
5.000000000000000e-001	5.378552e-006	1.981559e-009
Step Information: V3=4.5  (Run: 3/3)
-5.000000000000000e-001	1.994417e-009	5.400610e-006
-4.900000000000000e-001	2.728510e-009	5.399877e-006
-4.800000000000000e-001	3.728106e-009	5.398879e-006
-4.700000000000000e-001	5.084380e-009	5.397525e-006
-4.600000000000000e-001	6.915970e-009	5.395696e-006
-4.500000000000000e-001	9.374443e-009	5.393241e-006
-4.400000000000000e-001	1.264898e-008	5.389972e-006
-4.299999999999999e-001	1.696899e-008	5.385659e-006
-4.199999999999999e-001	2.260322e-008	5.380034e-006
-4.099999999999999e-001	2.985398e-008	5.372794e-006
-3.999999999999999e-001	3.904620e-008	5.363617e-006
-3.899999999999999e-001	5.051220e-008	5.352169e-006
-3.799999999999999e-001	6.457429e-008	5.338130e-006
-3.699999999999999e-001	8.152828e-008	5.321203e-006
-3.599999999999999e-001	1.016303e-007	5.301133e-006
-3.499999999999999e-001	1.250883e-007	5.277713e-006
-3.399999999999999e-001	1.520587e-007	5.250786e-006
-3.299999999999999e-001	1.826471e-007	5.220247e-006
-3.199999999999998e-001	2.169121e-007	5.186037e-006
-3.099999999999998e-001	2.548707e-007	5.148140e-006
-2.999999999999998e-001	2.965044e-007	5.106574e-006
-2.899999999999998e-001	3.417653e-007	5.061387e-006
-2.799999999999998e-001	3.905822e-007	5.012650e-006
-2.699999999999998e-001	4.428649e-007	4.960453e-006
-2.599999999999998e-001	4.985091e-007	4.904901e-006
-2.499999999999998e-001	5.573996e-007	4.846108e-006
-2.399999999999998e-001	6.194135e-007	4.784198e-006
-2.299999999999998e-001	6.844222e-007	4.719298e-006
-2.199999999999998e-001	7.522935e-007	4.651542e-006
-2.099999999999997e-001	8.228931e-007	4.581063e-006
-1.999999999999997e-001	8.960852e-007	4.507996e-006
-1.899999999999997e-001	9.717342e-007	4.432478e-006
-1.799999999999997e-001	1.049704e-006	4.354644e-006
-1.699999999999997e-001	1.129862e-006	4.274628e-006
-1.599999999999997e-001	1.212072e-006	4.192563e-006
-1.499999999999997e-001	1.296205e-006	4.108582e-006
-1.399999999999997e-001	1.382128e-006	4.022814e-006
-1.299999999999997e-001	1.469714e-006	3.935389e-006
-1.199999999999997e-001	1.558835e-006	3.846433e-006
-1.099999999999997e-001	1.649367e-006	3.756071e-006
-9.999999999999969e-002	1.741184e-006	3.664428e-006
-8.999999999999969e-002	1.834166e-006	3.571626e-006
-7.999999999999970e-002	1.928190e-006	3.477785e-006
-6.999999999999970e-002	2.023138e-006	3.383026e-006
-5.999999999999970e-002	2.118890e-006	3.287466e-006
-4.999999999999970e-002	2.215331e-006	3.191222e-006
-3.999999999999970e-002	2.312342e-006	3.094412e-006
-2.999999999999969e-002	2.409810e-006	2.997150e-006
-1.999999999999969e-002	2.507619e-006	2.899551e-006
-9.999999999999691e-003	2.605654e-006	2.801730e-006
3.087807787238717e-016	2.703801e-006	2.703801e-006
1.000000000000031e-002	2.801948e-006	2.605878e-006
2.000000000000031e-002	2.899980e-006	2.508074e-006
3.000000000000031e-002	2.997783e-006	2.410503e-006
4.000000000000031e-002	3.095243e-006	2.313279e-006
5.000000000000032e-002	3.192247e-006	2.216516e-006
6.000000000000032e-002	3.288678e-006	2.120329e-006
7.000000000000031e-002	3.384423e-006	2.024834e-006
8.000000000000031e-002	3.479364e-006	1.930148e-006
9.000000000000030e-002	3.573384e-006	1.836386e-006
1.000000000000003e-001	3.666366e-006	1.743668e-006
1.100000000000003e-001	3.758189e-006	1.652113e-006
1.200000000000003e-001	3.848733e-006	1.561841e-006
1.300000000000003e-001	3.937877e-006	1.472975e-006
1.400000000000003e-001	4.025497e-006	1.385638e-006
1.500000000000003e-001	4.111468e-006	1.299955e-006
1.600000000000003e-001	4.195663e-006	1.216053e-006
1.700000000000003e-001	4.277955e-006	1.134059e-006
1.800000000000003e-001	4.358214e-006	1.054102e-006
1.900000000000003e-001	4.436311e-006	9.763145e-007
2.000000000000003e-001	4.512112e-006	9.008268e-007
2.100000000000004e-001	4.585486e-006	8.277719e-007
2.200000000000004e-001	4.656301e-006	7.572827e-007
2.300000000000004e-001	4.724423e-006	6.894917e-007
2.400000000000004e-001	4.789721e-006	6.245306e-007
2.500000000000004e-001	4.852065e-006	5.625290e-007
2.600000000000004e-001	4.911331e-006	5.036126e-007
2.700000000000004e-001	4.967396e-006	4.479025e-007
2.800000000000004e-001	5.020148e-006	3.955122e-007
2.900000000000004e-001	5.069483e-006	3.465449e-007
3.000000000000004e-001	5.115313e-006	3.010906e-007
3.100000000000004e-001	5.157563e-006	2.592217e-007
3.200000000000005e-001	5.196184e-006	2.209885e-007
3.300000000000005e-001	5.231154e-006	1.864133e-007
3.400000000000005e-001	5.262484e-006	1.554850e-007
3.500000000000005e-001	5.290225e-006	1.281527e-007
3.600000000000005e-001	5.314471e-006	1.043203e-007
3.700000000000005e-001	5.335370e-006	8.384208e-008
3.800000000000005e-001	5.353117e-006	6.652168e-008
3.900000000000005e-001	5.367956e-006	5.211417e-008
4.000000000000005e-001	5.380174e-006	4.033343e-008
4.100000000000005e-001	5.390084e-006	3.086424e-008
4.200000000000005e-001	5.398016e-006	2.337809e-008
4.300000000000006e-001	5.404293e-006	1.755044e-008
4.400000000000006e-001	5.409218e-006	1.307642e-008
4.500000000000006e-001	5.413067e-006	9.682752e-009
4.600000000000006e-001	5.416072e-006	7.134441e-009
4.700000000000006e-001	5.418428e-006	5.236609e-009
4.800000000000006e-001	5.420293e-006	3.832441e-009
4.900000000000006e-001	5.421789e-006	2.798813e-009
5.000000000000000e-001	5.423010e-006	2.040916e-009
